
T1138 000:371 SEGGER J-Link V5.02f Log File (0105ms, 0395ms total)
T1138 000:371 DLL Compiled: Oct  2 2015 20:51:34 (0105ms, 0395ms total)
T1138 000:371 Logging started @ 2018-10-08 15:10 (0105ms, 0395ms total)
T1138 000:476 JLINK_SetWarnOutHandler(...) (0001ms, 0396ms total)
T1138 000:477 JLINK_OpenEx(...)
Firmware: J-Link OB-SAM3U128-V2-NordicSemi compiled Jul 12 2018 11:44:41
Hardware: V1.00
S/N: 682525004  returns O.K. (0280ms, 0676ms total)
T1138 000:757 JLINK_SetErrorOutHandler(...) (0000ms, 0676ms total)
T1138 000:757 JLINK_ExecCommand("ProjectFile = "E:\ÑÐ¾¿Ä¿Â¼\soft\nRF5_SDK_12.3.0_d7731ad\examples\dfu\bootloader_secure\pca10028\arm5_no_packs\JLinkSettings.ini"", ...)  returns 0x00 (0032ms, 0708ms total)
T1138 000:803 JLINK_ExecCommand("Device = nRF51822_xxAA", ...)Device "NRF51822_XXAA" selected.  returns 0x00 (0008ms, 0716ms total)
T1138 000:811 JLINK_ExecCommand("DisableConnectionTimeout", ...)  returns 0x01 (0000ms, 0716ms total)
T1138 000:811 JLINK_GetHardwareVersion()  returns 0x2710 (0000ms, 0716ms total)
T1138 000:811 JLINK_GetDLLVersion()  returns 50206 (0000ms, 0716ms total)
T1138 000:811 JLINK_GetFirmwareString(...) (0000ms, 0716ms total)
T1138 000:835 JLINK_GetDLLVersion()  returns 50206 (0000ms, 0716ms total)
T1138 000:835 JLINK_GetCompileDateTime() (0000ms, 0716ms total)
T1138 000:845 JLINK_GetFirmwareString(...) (0000ms, 0716ms total)
T1138 000:852 JLINK_GetHardwareVersion()  returns 0x2710 (0001ms, 0717ms total)
T1138 000:881 JLINK_TIF_Select(JLINKARM_TIF_SWD)  returns 0x00 (0004ms, 0721ms total)
T1138 000:885 JLINK_SetSpeed(5000) (0001ms, 0722ms total)
T1138 000:886 JLINK_GetId() >0x108 TIF>Found SWD-DP with ID 0x2BA01477 >0x35 TIF> >0x0D TIF> >0x28 TIF> >0x0D TIF> >0x28 TIF> >0x35 TIF> >0x0D TIF> >0x28 TIF> >0x35 TIF> >0x35 TIF> >0x35 TIF> >0x35 TIF> >0x0D TIF> >0x28 TIF> >0x0D TIF> >0x28 TIF> >0x35 TIF> >0x0D TIF> >0x28 TIF> >0x0D TIF> >0x28 TIF> >0x0D TIF> >0x28 TIF> >0x35 TIF> >0x35 TIF> >0x0D TIF> >0x28 TIF> >0x35 TIF> >0x35 TIF>Found Cortex-M4 r0p1, Little endian.
Identified core does not match configuration. (Found: Cortex-M4, Configured: Cortex-M0) -- CPU_ReadMem(4 bytes @ 0xE000EDF0) -- CPU_WriteMem(4 bytes @ 0xE000EDF0) -- CPU_ReadMem(4 bytes @ 0xE0002000)FPUnit: 6 code (BP) slots and 2 literal slots -- CPU_ReadMem(4 bytes @ 0xE000EDFC) -- CPU_WriteMem(4 bytes @ 0xE000EDFC) -- CPU_ReadMem(4 bytes @ 0xE0001000) -- CPU_WriteMem(4 bytes @ 0xE0001000) -- CPU_ReadMem(4 bytes @ 0xE000ED88) -- CPU_WriteMem(4 bytes @ 0xE000ED88) -- CPU_ReadMem(4 bytes @ 0xE000ED88)
 -- CPU_WriteMem(4 bytes @ 0xE000ED88)CoreSight components:ROMTbl 0 @ E00FF000 -- CPU_ReadMem(16 bytes @ 0xE00FF000) -- CPU_ReadMem(16 bytes @ 0xE000EFF0) -- CPU_ReadMem(16 bytes @ 0xE000EFE0)ROMTbl 0 [0]: FFF0F000, CID: B105E00D, PID: 000BB00C SCS -- CPU_ReadMem(16 bytes @ 0xE0001FF0) -- CPU_ReadMem(16 bytes @ 0xE0001FE0)ROMTbl 0 [1]: FFF02000, CID: B105E00D, PID: 003BB002 DWT -- CPU_ReadMem(16 bytes @ 0xE0002FF0) -- CPU_ReadMem(16 bytes @ 0xE0002FE0)
ROMTbl 0 [2]: FFF03000, CID: B105E00D, PID: 002BB003 FPB -- CPU_ReadMem(16 bytes @ 0xE0000FF0) -- CPU_ReadMem(16 bytes @ 0xE0000FE0)ROMTbl 0 [3]: FFF01000, CID: B105E00D, PID: 003BB001 ITM -- CPU_ReadMem(16 bytes @ 0xE00FF010) -- CPU_ReadMem(16 bytes @ 0xE0040FF0) -- CPU_ReadMem(16 bytes @ 0xE0040FE0)ROMTbl 0 [4]: FFF41000, CID: B105900D, PID: 000BB9A1 TPIU -- CPU_ReadMem(16 bytes @ 0xE0041FF0) -- CPU_ReadMem(16 bytes @ 0xE0041FE0)ROMTbl 0 [5]: FFF42000, CID: B105900D, PID: 000BB925 ETM >0x35 TIF>
  returns 0x2BA01477 (0140ms, 0862ms total)
T1138 001:026 JLINK_GetDLLVersion()  returns 50206 (0000ms, 0862ms total)
T1138 001:026 JLINK_CORE_GetFound()  returns 0xE0000FF (0001ms, 0863ms total)
T1138 001:027 JLINK_GetDebugInfo(0x100) -- Value=0xE00FF003  returns 0x00 (0000ms, 0863ms total)
T1138 001:036 JLINK_GetDebugInfo(0x100) -- Value=0xE00FF003  returns 0x00 (0000ms, 0863ms total)
T1138 001:036 JLINK_GetDebugInfo(0x101) -- Value=0xE0041000  returns 0x00 (0000ms, 0863ms total)
T1138 001:036 JLINK_GetDebugInfo(0x102) -- Value=0x00000000  returns 0x00 (0000ms, 0863ms total)
T1138 001:036 JLINK_GetDebugInfo(0x103) -- Value=0xE0040000  returns 0x00 (0000ms, 0863ms total)
T1138 001:036 JLINK_GetDebugInfo(0x104) -- Value=0xE0000000  returns 0x00 (0000ms, 0863ms total)
T1138 001:036 JLINK_GetDebugInfo(0x105) -- Value=0xE0001000  returns 0x00 (0000ms, 0863ms total)
T1138 001:036 JLINK_GetDebugInfo(0x106) -- Value=0xE0002000  returns 0x00 (0000ms, 0863ms total)
T1138 001:036 JLINK_GetDebugInfo(0x107) -- Value=0xE000E000  returns 0x00 (0000ms, 0863ms total)
T1138 001:036 JLINK_GetDebugInfo(0x10C) -- Value=0xE000EDF0  returns 0x00 (0000ms, 0863ms total)
T1138 001:036 JLINK_ReadMemU32(0xE000EF40, 0x0001 Items, ...) -- CPU is running -- CPU_ReadMem(4 bytes @ 0xE000EF40) - Data: 21 00 11 10  returns 0x01 (0001ms, 0864ms total)
T1138 001:037 JLINK_ReadMemU32(0xE000EF44, 0x0001 Items, ...) -- CPU is running -- CPU_ReadMem(4 bytes @ 0xE000EF44) - Data: 11 00 00 11  returns 0x01 (0001ms, 0865ms total)
T1138 001:038 JLINK_ReadMemU32(0xE000ED00, 0x0001 Items, ...) -- CPU is running -- CPU_ReadMem(4 bytes @ 0xE000ED00) - Data: 41 C2 0F 41  returns 0x01 (0001ms, 0866ms total)
T1138 001:039 JLINK_SetResetType(JLINKARM_RESET_TYPE_NORMAL)  returns JLINKARM_RESET_TYPE_NORMAL (0000ms, 0866ms total)
T1138 001:039 JLINK_Reset() -- CPU is running -- CPU_WriteMem(4 bytes @ 0xE000EDF0) -- CPU is running -- CPU_WriteMem(4 bytes @ 0xE000EDFC) >0x35 TIF> -- CPU is running -- CPU_WriteMem(4 bytes @ 0xE000ED0C) -- CPU is running -- CPU_ReadMem(4 bytes @ 0xE000EDF0) -- CPU is running -- CPU_ReadMem(4 bytes @ 0xE000EDF0) -- CPU is running -- CPU_WriteMem(4 bytes @ 0xE000EDF0) -- CPU is running -- CPU_WriteMem(4 bytes @ 0xE000EDFC) -- CPU is running -- CPU_ReadMem(4 bytes @ 0xE000EDF0)
 -- CPU_WriteMem(4 bytes @ 0xE0002000) -- CPU_ReadMem(4 bytes @ 0xE000EDFC) -- CPU_ReadMem(4 bytes @ 0xE0001000) (0027ms, 0893ms total)
T1138 001:066 JLINK_Halt()  returns 0x00 (0000ms, 0893ms total)
T1138 001:066 JLINK_IsHalted()  returns TRUE (0000ms, 0893ms total)
T1138 001:066 JLINK_ReadMemU32(0xE000EDF0, 0x0001 Items, ...) -- CPU_ReadMem(4 bytes @ 0xE000EDF0) - Data: 03 00 03 00  returns 0x01 (0001ms, 0894ms total)
T1138 001:067 JLINK_WriteU32(0xE000EDF0, 0xA05F0003) -- CPU_WriteMem(4 bytes @ 0xE000EDF0)  returns 0x00 (0001ms, 0895ms total)
T1138 001:068 JLINK_WriteU32(0xE000EDFC, 0x01000000) -- CPU_WriteMem(4 bytes @ 0xE000EDFC)  returns 0x00 (0001ms, 0896ms total)
T1138 001:095 JLINK_GetHWStatus(...)  returns 0x00 (0001ms, 0897ms total)
T1138 001:125 JLINK_GetNumBPUnits(Type = 0xFFFFFF00)  returns 0x06 (0000ms, 0897ms total)
T1138 001:125 JLINK_GetNumBPUnits(Type = 0xF0)  returns 0x2000 (0000ms, 0897ms total)
T1138 001:125 JLINK_GetNumWPUnits()  returns 0x04 (0000ms, 0897ms total)
T1138 001:143 JLINK_GetSpeed()  returns 0x3E8 (0000ms, 0897ms total)
T1138 001:155 JLINK_ReadMemU32(0xE000E004, 0x0001 Items, ...) -- CPU_ReadMem(4 bytes @ 0xE000E004) - Data: 01 00 00 00  returns 0x01 (0001ms, 0898ms total)
T1138 001:156 JLINK_ReadMemU32(0xE000E004, 0x0001 Items, ...) -- CPU_ReadMem(4 bytes @ 0xE000E004) - Data: 01 00 00 00  returns 0x01 (0001ms, 0899ms total)
T1138 001:157 JLINK_WriteMem(0xE0001000, 0x001C Bytes, ...) - Data: 01 00 00 00 00 00 00 00 00 00 00 00 00 00 00 00 ... -- CPU_WriteMem(28 bytes @ 0xE0001000)  returns 0x1C (0002ms, 0901ms total)
T1138 001:159 JLINK_ReadMem (0xE0001000, 0x001C Bytes, ...) -- CPU_ReadMem(28 bytes @ 0xE0001000) - Data: 01 00 00 40 00 00 00 00 00 00 00 00 00 00 00 00 ...  returns 0x00 (0001ms, 0902ms total)
T1138 001:160 JLINK_Halt()  returns 0x00 (0001ms, 0903ms total)
T1138 001:161 JLINK_IsHalted()  returns TRUE (0000ms, 0903ms total)
T1138 001:165 JLINK_WriteMem(0x20000000, 0x0478 Bytes, ...) - Data: 00 BE 0A E0 0D 78 2D 06 68 40 08 24 40 00 00 D3 ... -- CPU_WriteMem(1144 bytes @ 0x20000000)  returns 0x478 (0017ms, 0920ms total)
T1138 001:182 JLINK_WriteReg(R0, 0x00000000)  returns 0x00 (0000ms, 0920ms total)
T1138 001:182 JLINK_WriteReg(R1, 0x00B71B00)  returns 0x00 (0000ms, 0920ms total)
T1138 001:182 JLINK_WriteReg(R2, 0x00000001)  returns 0x00 (0000ms, 0920ms total)
T1138 001:182 JLINK_WriteReg(R3, 0x00000000)  returns 0x00 (0000ms, 0920ms total)
T1138 001:182 JLINK_WriteReg(R4, 0x00000000)  returns 0x00 (0000ms, 0920ms total)
T1138 001:182 JLINK_WriteReg(R5, 0x00000000)  returns 0x00 (0000ms, 0920ms total)
T1138 001:182 JLINK_WriteReg(R6, 0x00000000)  returns 0x00 (0000ms, 0920ms total)
T1138 001:182 JLINK_WriteReg(R7, 0x00000000)  returns 0x00 (0000ms, 0920ms total)
T1138 001:182 JLINK_WriteReg(R8, 0x00000000)  returns 0x00 (0000ms, 0920ms total)
T1138 001:182 JLINK_WriteReg(R9, 0x20000474)  returns 0x00 (0000ms, 0920ms total)
T1138 001:182 JLINK_WriteReg(R10, 0x00000000)  returns 0x00 (0001ms, 0921ms total)
T1138 001:183 JLINK_WriteReg(R11, 0x00000000)  returns 0x00 (0000ms, 0921ms total)
T1138 001:183 JLINK_WriteReg(R12, 0x00000000)  returns 0x00 (0000ms, 0921ms total)
T1138 001:183 JLINK_WriteReg(R13 (SP), 0x20004000)  returns 0x00 (0000ms, 0921ms total)
T1138 001:183 JLINK_WriteReg(R14, 0x20000001)  returns 0x00 (0000ms, 0921ms total)
T1138 001:183 JLINK_WriteReg(R15 (PC), 0x20000028)  returns 0x00 (0000ms, 0921ms total)
T1138 001:183 JLINK_WriteReg(XPSR, 0x01000000)  returns 0x00 (0000ms, 0921ms total)
T1138 001:183 JLINK_WriteReg(MSP, 0x20004000)  returns 0x00 (0000ms, 0921ms total)
T1138 001:183 JLINK_WriteReg(PSP, 0x20004000)  returns 0x00 (0000ms, 0921ms total)
T1138 001:183 JLINK_WriteReg(CFBP, 0x00000000)  returns 0x00 (0000ms, 0921ms total)
T1138 001:183 JLINK_SetBPEx(Addr = 0x20000000, Type = 0xFFFFFFF2) -- CPU_ReadMem(2 bytes @ 0x20000000)  returns 0x00000001 (0001ms, 0922ms total)
T1138 001:184 JLINK_Go() -- CPU_WriteMem(2 bytes @ 0x20000000) -- CPU_ReadMem(4 bytes @ 0xE0001000) -- CPU_WriteMem(4 bytes @ 0xE0002008) -- CPU_WriteMem(4 bytes @ 0xE000200C) -- CPU_WriteMem(4 bytes @ 0xE0002010) -- CPU_WriteMem(4 bytes @ 0xE0002014) -- CPU_WriteMem(4 bytes @ 0xE0002018) -- CPU_WriteMem(4 bytes @ 0xE000201C) -- CPU_WriteMem(4 bytes @ 0xE0001004) (0011ms, 0933ms total)
T1138 001:195 JLINK_IsHalted() -- CPU_ReadMem(2 bytes @ 0x20000000)  returns TRUE (0008ms, 0941ms total)
T1138 001:203 JLINK_ReadReg(R15 (PC))  returns 0x20000000 (0000ms, 0933ms total)
T1138 001:203 JLINK_ClrBPEx(BPHandle = 0x00000001)  returns 0x00 (0000ms, 0933ms total)
T1138 001:203 JLINK_ReadReg(R0)  returns 0x00000000 (0000ms, 0933ms total)
T1138 001:204 JLINK_WriteReg(R0, 0x0003AC00)  returns 0x00 (0001ms, 0934ms total)
T1138 001:205 JLINK_WriteReg(R1, 0x00000400)  returns 0x00 (0000ms, 0934ms total)
T1138 001:205 JLINK_WriteReg(R2, 0x000000FF)  returns 0x00 (0000ms, 0934ms total)
T1138 001:205 JLINK_WriteReg(R3, 0x00000000)  returns 0x00 (0000ms, 0934ms total)
T1138 001:205 JLINK_WriteReg(R4, 0x00000000)  returns 0x00 (0000ms, 0934ms total)
T1138 001:205 JLINK_WriteReg(R5, 0x00000000)  returns 0x00 (0000ms, 0934ms total)
T1138 001:205 JLINK_WriteReg(R6, 0x00000000)  returns 0x00 (0000ms, 0934ms total)
T1138 001:205 JLINK_WriteReg(R7, 0x00000000)  returns 0x00 (0000ms, 0934ms total)
T1138 001:205 JLINK_WriteReg(R8, 0x00000000)  returns 0x00 (0000ms, 0934ms total)
T1138 001:205 JLINK_WriteReg(R9, 0x20000474)  returns 0x00 (0000ms, 0934ms total)
T1138 001:205 JLINK_WriteReg(R10, 0x00000000)  returns 0x00 (0000ms, 0934ms total)
T1138 001:205 JLINK_WriteReg(R11, 0x00000000)  returns 0x00 (0000ms, 0934ms total)
T1138 001:205 JLINK_WriteReg(R12, 0x00000000)  returns 0x00 (0000ms, 0934ms total)
T1138 001:205 JLINK_WriteReg(R13 (SP), 0x20004000)  returns 0x00 (0000ms, 0934ms total)
T1138 001:205 JLINK_WriteReg(R14, 0x20000001)  returns 0x00 (0000ms, 0934ms total)
T1138 001:205 JLINK_WriteReg(R15 (PC), 0x20000188)  returns 0x00 (0000ms, 0934ms total)
T1138 001:205 JLINK_WriteReg(XPSR, 0x01000000)  returns 0x00 (0000ms, 0934ms total)
T1138 001:205 JLINK_WriteReg(MSP, 0x20004000)  returns 0x00 (0000ms, 0934ms total)
T1138 001:205 JLINK_WriteReg(PSP, 0x20004000)  returns 0x00 (0000ms, 0934ms total)
T1138 001:205 JLINK_WriteReg(CFBP, 0x00000000)  returns 0x00 (0000ms, 0934ms total)
T1138 001:205 JLINK_SetBPEx(Addr = 0x20000000, Type = 0xFFFFFFF2)  returns 0x00000002 (0000ms, 0934ms total)
T1138 001:205 JLINK_Go() -- CPU_ReadMem(4 bytes @ 0xE0001000) (0005ms, 0939ms total)
T1138 001:210 JLINK_IsHalted() -- CPU_ReadMem(2 bytes @ 0x20000000)  returns TRUE (0009ms, 0948ms total)
T1138 001:219 JLINK_ReadReg(R15 (PC))  returns 0x20000000 (0000ms, 0939ms total)
T1138 001:219 JLINK_ClrBPEx(BPHandle = 0x00000002)  returns 0x00 (0000ms, 0939ms total)
T1138 001:219 JLINK_ReadReg(R0)  returns 0x00000000 (0000ms, 0939ms total)
T1138 001:220 JLINK_WriteReg(R0, 0x0003B000)  returns 0x00 (0000ms, 0939ms total)
T1138 001:220 JLINK_WriteReg(R1, 0x00000400)  returns 0x00 (0000ms, 0939ms total)
T1138 001:220 JLINK_WriteReg(R2, 0x000000FF)  returns 0x00 (0000ms, 0939ms total)
T1138 001:220 JLINK_WriteReg(R3, 0x00000000)  returns 0x00 (0000ms, 0939ms total)
T1138 001:220 JLINK_WriteReg(R4, 0x00000000)  returns 0x00 (0000ms, 0939ms total)
T1138 001:220 JLINK_WriteReg(R5, 0x00000000)  returns 0x00 (0000ms, 0939ms total)
T1138 001:220 JLINK_WriteReg(R6, 0x00000000)  returns 0x00 (0000ms, 0939ms total)
T1138 001:220 JLINK_WriteReg(R7, 0x00000000)  returns 0x00 (0000ms, 0939ms total)
T1138 001:220 JLINK_WriteReg(R8, 0x00000000)  returns 0x00 (0000ms, 0939ms total)
T1138 001:220 JLINK_WriteReg(R9, 0x20000474)  returns 0x00 (0000ms, 0939ms total)
T1138 001:220 JLINK_WriteReg(R10, 0x00000000)  returns 0x00 (0000ms, 0939ms total)
T1138 001:220 JLINK_WriteReg(R11, 0x00000000)  returns 0x00 (0000ms, 0939ms total)
T1138 001:220 JLINK_WriteReg(R12, 0x00000000)  returns 0x00 (0000ms, 0939ms total)
T1138 001:220 JLINK_WriteReg(R13 (SP), 0x20004000)  returns 0x00 (0000ms, 0939ms total)
T1138 001:220 JLINK_WriteReg(R14, 0x20000001)  returns 0x00 (0000ms, 0939ms total)
T1138 001:220 JLINK_WriteReg(R15 (PC), 0x20000188)  returns 0x00 (0000ms, 0939ms total)
T1138 001:220 JLINK_WriteReg(XPSR, 0x01000000)  returns 0x00 (0000ms, 0939ms total)
T1138 001:220 JLINK_WriteReg(MSP, 0x20004000)  returns 0x00 (0000ms, 0939ms total)
T1138 001:220 JLINK_WriteReg(PSP, 0x20004000)  returns 0x00 (0000ms, 0939ms total)
T1138 001:220 JLINK_WriteReg(CFBP, 0x00000000)  returns 0x00 (0000ms, 0939ms total)
T1138 001:220 JLINK_SetBPEx(Addr = 0x20000000, Type = 0xFFFFFFF2)  returns 0x00000003 (0000ms, 0939ms total)
T1138 001:220 JLINK_Go() -- CPU_ReadMem(4 bytes @ 0xE0001000) (0005ms, 0944ms total)
T1138 001:225 JLINK_IsHalted() -- CPU_ReadMem(2 bytes @ 0x20000000)  returns TRUE (0009ms, 0953ms total)
T1138 001:234 JLINK_ReadReg(R15 (PC))  returns 0x20000000 (0000ms, 0944ms total)
T1138 001:234 JLINK_ClrBPEx(BPHandle = 0x00000003)  returns 0x00 (0000ms, 0944ms total)
T1138 001:234 JLINK_ReadReg(R0)  returns 0x00000000 (0000ms, 0944ms total)
T1138 001:235 JLINK_WriteReg(R0, 0x0003B400)  returns 0x00 (0000ms, 0944ms total)
T1138 001:235 JLINK_WriteReg(R1, 0x00000400)  returns 0x00 (0000ms, 0944ms total)
T1138 001:235 JLINK_WriteReg(R2, 0x000000FF)  returns 0x00 (0000ms, 0944ms total)
T1138 001:235 JLINK_WriteReg(R3, 0x00000000)  returns 0x00 (0000ms, 0944ms total)
T1138 001:235 JLINK_WriteReg(R4, 0x00000000)  returns 0x00 (0000ms, 0944ms total)
T1138 001:235 JLINK_WriteReg(R5, 0x00000000)  returns 0x00 (0000ms, 0944ms total)
T1138 001:235 JLINK_WriteReg(R6, 0x00000000)  returns 0x00 (0000ms, 0944ms total)
T1138 001:235 JLINK_WriteReg(R7, 0x00000000)  returns 0x00 (0000ms, 0944ms total)
T1138 001:235 JLINK_WriteReg(R8, 0x00000000)  returns 0x00 (0000ms, 0944ms total)
T1138 001:235 JLINK_WriteReg(R9, 0x20000474)  returns 0x00 (0000ms, 0944ms total)
T1138 001:235 JLINK_WriteReg(R10, 0x00000000)  returns 0x00 (0000ms, 0944ms total)
T1138 001:235 JLINK_WriteReg(R11, 0x00000000)  returns 0x00 (0000ms, 0944ms total)
T1138 001:235 JLINK_WriteReg(R12, 0x00000000)  returns 0x00 (0000ms, 0944ms total)
T1138 001:235 JLINK_WriteReg(R13 (SP), 0x20004000)  returns 0x00 (0000ms, 0944ms total)
T1138 001:235 JLINK_WriteReg(R14, 0x20000001)  returns 0x00 (0000ms, 0944ms total)
T1138 001:235 JLINK_WriteReg(R15 (PC), 0x20000188)  returns 0x00 (0000ms, 0944ms total)
T1138 001:235 JLINK_WriteReg(XPSR, 0x01000000)  returns 0x00 (0001ms, 0945ms total)
T1138 001:236 JLINK_WriteReg(MSP, 0x20004000)  returns 0x00 (0000ms, 0945ms total)
T1138 001:236 JLINK_WriteReg(PSP, 0x20004000)  returns 0x00 (0000ms, 0945ms total)
T1138 001:236 JLINK_WriteReg(CFBP, 0x00000000)  returns 0x00 (0000ms, 0945ms total)
T1138 001:236 JLINK_SetBPEx(Addr = 0x20000000, Type = 0xFFFFFFF2)  returns 0x00000004 (0000ms, 0945ms total)
T1138 001:236 JLINK_Go() -- CPU_ReadMem(4 bytes @ 0xE0001000) (0004ms, 0949ms total)
T1138 001:240 JLINK_IsHalted() -- CPU_ReadMem(2 bytes @ 0x20000000)  returns TRUE (0008ms, 0957ms total)
T1138 001:248 JLINK_ReadReg(R15 (PC))  returns 0x20000000 (0000ms, 0949ms total)
T1138 001:248 JLINK_ClrBPEx(BPHandle = 0x00000004)  returns 0x00 (0000ms, 0949ms total)
T1138 001:248 JLINK_ReadReg(R0)  returns 0x00000000 (0000ms, 0949ms total)
T1138 001:249 JLINK_WriteReg(R0, 0x0003B800)  returns 0x00 (0000ms, 0949ms total)
T1138 001:249 JLINK_WriteReg(R1, 0x00000400)  returns 0x00 (0000ms, 0949ms total)
T1138 001:249 JLINK_WriteReg(R2, 0x000000FF)  returns 0x00 (0000ms, 0949ms total)
T1138 001:249 JLINK_WriteReg(R3, 0x00000000)  returns 0x00 (0000ms, 0949ms total)
T1138 001:249 JLINK_WriteReg(R4, 0x00000000)  returns 0x00 (0000ms, 0949ms total)
T1138 001:249 JLINK_WriteReg(R5, 0x00000000)  returns 0x00 (0000ms, 0949ms total)
T1138 001:249 JLINK_WriteReg(R6, 0x00000000)  returns 0x00 (0000ms, 0949ms total)
T1138 001:249 JLINK_WriteReg(R7, 0x00000000)  returns 0x00 (0000ms, 0949ms total)
T1138 001:249 JLINK_WriteReg(R8, 0x00000000)  returns 0x00 (0000ms, 0949ms total)
T1138 001:249 JLINK_WriteReg(R9, 0x20000474)  returns 0x00 (0000ms, 0949ms total)
T1138 001:249 JLINK_WriteReg(R10, 0x00000000)  returns 0x00 (0000ms, 0949ms total)
T1138 001:249 JLINK_WriteReg(R11, 0x00000000)  returns 0x00 (0000ms, 0949ms total)
T1138 001:249 JLINK_WriteReg(R12, 0x00000000)  returns 0x00 (0000ms, 0949ms total)
T1138 001:249 JLINK_WriteReg(R13 (SP), 0x20004000)  returns 0x00 (0000ms, 0949ms total)
T1138 001:249 JLINK_WriteReg(R14, 0x20000001)  returns 0x00 (0000ms, 0949ms total)
T1138 001:249 JLINK_WriteReg(R15 (PC), 0x20000188)  returns 0x00 (0000ms, 0949ms total)
T1138 001:249 JLINK_WriteReg(XPSR, 0x01000000)  returns 0x00 (0000ms, 0949ms total)
T1138 001:250 JLINK_WriteReg(MSP, 0x20004000)  returns 0x00 (0000ms, 0950ms total)
T1138 001:250 JLINK_WriteReg(PSP, 0x20004000)  returns 0x00 (0000ms, 0950ms total)
T1138 001:250 JLINK_WriteReg(CFBP, 0x00000000)  returns 0x00 (0000ms, 0950ms total)
T1138 001:250 JLINK_SetBPEx(Addr = 0x20000000, Type = 0xFFFFFFF2)  returns 0x00000005 (0000ms, 0950ms total)
T1138 001:250 JLINK_Go() -- CPU_ReadMem(4 bytes @ 0xE0001000) (0004ms, 0954ms total)
T1138 001:254 JLINK_IsHalted() -- CPU_ReadMem(2 bytes @ 0x20000000)  returns TRUE (0008ms, 0962ms total)
T1138 001:262 JLINK_ReadReg(R15 (PC))  returns 0x20000000 (0000ms, 0954ms total)
T1138 001:262 JLINK_ClrBPEx(BPHandle = 0x00000005)  returns 0x00 (0000ms, 0954ms total)
T1138 001:262 JLINK_ReadReg(R0)  returns 0x00000000 (0000ms, 0954ms total)
T1138 001:264 JLINK_WriteReg(R0, 0x0003BC00)  returns 0x00 (0000ms, 0954ms total)
T1138 001:264 JLINK_WriteReg(R1, 0x00000400)  returns 0x00 (0000ms, 0954ms total)
T1138 001:264 JLINK_WriteReg(R2, 0x000000FF)  returns 0x00 (0000ms, 0954ms total)
T1138 001:264 JLINK_WriteReg(R3, 0x00000000)  returns 0x00 (0000ms, 0954ms total)
T1138 001:264 JLINK_WriteReg(R4, 0x00000000)  returns 0x00 (0000ms, 0954ms total)
T1138 001:264 JLINK_WriteReg(R5, 0x00000000)  returns 0x00 (0000ms, 0954ms total)
T1138 001:264 JLINK_WriteReg(R6, 0x00000000)  returns 0x00 (0000ms, 0954ms total)
T1138 001:264 JLINK_WriteReg(R7, 0x00000000)  returns 0x00 (0000ms, 0954ms total)
T1138 001:264 JLINK_WriteReg(R8, 0x00000000)  returns 0x00 (0000ms, 0954ms total)
T1138 001:264 JLINK_WriteReg(R9, 0x20000474)  returns 0x00 (0000ms, 0954ms total)
T1138 001:264 JLINK_WriteReg(R10, 0x00000000)  returns 0x00 (0000ms, 0954ms total)
T1138 001:264 JLINK_WriteReg(R11, 0x00000000)  returns 0x00 (0000ms, 0954ms total)
T1138 001:264 JLINK_WriteReg(R12, 0x00000000)  returns 0x00 (0000ms, 0954ms total)
T1138 001:264 JLINK_WriteReg(R13 (SP), 0x20004000)  returns 0x00 (0000ms, 0954ms total)
T1138 001:264 JLINK_WriteReg(R14, 0x20000001)  returns 0x00 (0000ms, 0954ms total)
T1138 001:264 JLINK_WriteReg(R15 (PC), 0x20000188)  returns 0x00 (0000ms, 0954ms total)
T1138 001:264 JLINK_WriteReg(XPSR, 0x01000000)  returns 0x00 (0001ms, 0955ms total)
T1138 001:265 JLINK_WriteReg(MSP, 0x20004000)  returns 0x00 (0000ms, 0955ms total)
T1138 001:265 JLINK_WriteReg(PSP, 0x20004000)  returns 0x00 (0000ms, 0955ms total)
T1138 001:265 JLINK_WriteReg(CFBP, 0x00000000)  returns 0x00 (0000ms, 0955ms total)
T1138 001:265 JLINK_SetBPEx(Addr = 0x20000000, Type = 0xFFFFFFF2)  returns 0x00000006 (0000ms, 0955ms total)
T1138 001:265 JLINK_Go() -- CPU_ReadMem(4 bytes @ 0xE0001000) (0005ms, 0960ms total)
T1138 001:270 JLINK_IsHalted() -- CPU_ReadMem(2 bytes @ 0x20000000)  returns TRUE (0008ms, 0968ms total)
T1138 001:278 JLINK_ReadReg(R15 (PC))  returns 0x20000000 (0000ms, 0960ms total)
T1138 001:278 JLINK_ClrBPEx(BPHandle = 0x00000006)  returns 0x00 (0000ms, 0960ms total)
T1138 001:278 JLINK_ReadReg(R0)  returns 0x00000000 (0000ms, 0960ms total)
T1138 001:280 JLINK_WriteReg(R0, 0x0003C000)  returns 0x00 (0000ms, 0960ms total)
T1138 001:280 JLINK_WriteReg(R1, 0x00000400)  returns 0x00 (0000ms, 0960ms total)
T1138 001:280 JLINK_WriteReg(R2, 0x000000FF)  returns 0x00 (0000ms, 0960ms total)
T1138 001:280 JLINK_WriteReg(R3, 0x00000000)  returns 0x00 (0000ms, 0960ms total)
T1138 001:280 JLINK_WriteReg(R4, 0x00000000)  returns 0x00 (0000ms, 0960ms total)
T1138 001:280 JLINK_WriteReg(R5, 0x00000000)  returns 0x00 (0000ms, 0960ms total)
T1138 001:280 JLINK_WriteReg(R6, 0x00000000)  returns 0x00 (0000ms, 0960ms total)
T1138 001:280 JLINK_WriteReg(R7, 0x00000000)  returns 0x00 (0000ms, 0960ms total)
T1138 001:280 JLINK_WriteReg(R8, 0x00000000)  returns 0x00 (0000ms, 0960ms total)
T1138 001:280 JLINK_WriteReg(R9, 0x20000474)  returns 0x00 (0000ms, 0960ms total)
T1138 001:280 JLINK_WriteReg(R10, 0x00000000)  returns 0x00 (0000ms, 0960ms total)
T1138 001:280 JLINK_WriteReg(R11, 0x00000000)  returns 0x00 (0000ms, 0960ms total)
T1138 001:280 JLINK_WriteReg(R12, 0x00000000)  returns 0x00 (0000ms, 0960ms total)
T1138 001:280 JLINK_WriteReg(R13 (SP), 0x20004000)  returns 0x00 (0000ms, 0960ms total)
T1138 001:280 JLINK_WriteReg(R14, 0x20000001)  returns 0x00 (0000ms, 0960ms total)
T1138 001:280 JLINK_WriteReg(R15 (PC), 0x20000188)  returns 0x00 (0000ms, 0960ms total)
T1138 001:280 JLINK_WriteReg(XPSR, 0x01000000)  returns 0x00 (0000ms, 0960ms total)
T1138 001:280 JLINK_WriteReg(MSP, 0x20004000)  returns 0x00 (0001ms, 0961ms total)
T1138 001:281 JLINK_WriteReg(PSP, 0x20004000)  returns 0x00 (0000ms, 0961ms total)
T1138 001:281 JLINK_WriteReg(CFBP, 0x00000000)  returns 0x00 (0000ms, 0961ms total)
T1138 001:281 JLINK_SetBPEx(Addr = 0x20000000, Type = 0xFFFFFFF2)  returns 0x00000007 (0000ms, 0961ms total)
T1138 001:281 JLINK_Go() -- CPU_ReadMem(4 bytes @ 0xE0001000) (0004ms, 0965ms total)
T1138 001:285 JLINK_IsHalted() -- CPU_ReadMem(2 bytes @ 0x20000000)  returns TRUE (0011ms, 0976ms total)
T1138 001:296 JLINK_ReadReg(R15 (PC))  returns 0x20000000 (0000ms, 0965ms total)
T1138 001:296 JLINK_ClrBPEx(BPHandle = 0x00000007)  returns 0x00 (0000ms, 0965ms total)
T1138 001:296 JLINK_ReadReg(R0)  returns 0x00000000 (0000ms, 0965ms total)
T1138 001:297 JLINK_WriteReg(R0, 0x0003C400)  returns 0x00 (0000ms, 0965ms total)
T1138 001:297 JLINK_WriteReg(R1, 0x00000400)  returns 0x00 (0000ms, 0965ms total)
T1138 001:297 JLINK_WriteReg(R2, 0x000000FF)  returns 0x00 (0000ms, 0965ms total)
T1138 001:297 JLINK_WriteReg(R3, 0x00000000)  returns 0x00 (0000ms, 0965ms total)
T1138 001:297 JLINK_WriteReg(R4, 0x00000000)  returns 0x00 (0000ms, 0965ms total)
T1138 001:297 JLINK_WriteReg(R5, 0x00000000)  returns 0x00 (0000ms, 0965ms total)
T1138 001:297 JLINK_WriteReg(R6, 0x00000000)  returns 0x00 (0000ms, 0965ms total)
T1138 001:297 JLINK_WriteReg(R7, 0x00000000)  returns 0x00 (0000ms, 0965ms total)
T1138 001:297 JLINK_WriteReg(R8, 0x00000000)  returns 0x00 (0000ms, 0965ms total)
T1138 001:297 JLINK_WriteReg(R9, 0x20000474)  returns 0x00 (0000ms, 0965ms total)
T1138 001:297 JLINK_WriteReg(R10, 0x00000000)  returns 0x00 (0000ms, 0965ms total)
T1138 001:297 JLINK_WriteReg(R11, 0x00000000)  returns 0x00 (0000ms, 0965ms total)
T1138 001:297 JLINK_WriteReg(R12, 0x00000000)  returns 0x00 (0000ms, 0965ms total)
T1138 001:297 JLINK_WriteReg(R13 (SP), 0x20004000)  returns 0x00 (0000ms, 0965ms total)
T1138 001:297 JLINK_WriteReg(R14, 0x20000001)  returns 0x00 (0000ms, 0965ms total)
T1138 001:297 JLINK_WriteReg(R15 (PC), 0x20000188)  returns 0x00 (0000ms, 0965ms total)
T1138 001:297 JLINK_WriteReg(XPSR, 0x01000000)  returns 0x00 (0000ms, 0965ms total)
T1138 001:297 JLINK_WriteReg(MSP, 0x20004000)  returns 0x00 (0000ms, 0965ms total)
T1138 001:297 JLINK_WriteReg(PSP, 0x20004000)  returns 0x00 (0000ms, 0965ms total)
T1138 001:297 JLINK_WriteReg(CFBP, 0x00000000)  returns 0x00 (0000ms, 0965ms total)
T1138 001:297 JLINK_SetBPEx(Addr = 0x20000000, Type = 0xFFFFFFF2)  returns 0x00000008 (0000ms, 0965ms total)
T1138 001:297 JLINK_Go() -- CPU_ReadMem(4 bytes @ 0xE0001000) (0005ms, 0970ms total)
T1138 001:302 JLINK_IsHalted() -- CPU_ReadMem(2 bytes @ 0x20000000)  returns TRUE (0009ms, 0979ms total)
T1138 001:311 JLINK_ReadReg(R15 (PC))  returns 0x20000000 (0000ms, 0970ms total)
T1138 001:311 JLINK_ClrBPEx(BPHandle = 0x00000008)  returns 0x00 (0000ms, 0970ms total)
T1138 001:311 JLINK_ReadReg(R0)  returns 0x00000000 (0000ms, 0970ms total)
T1138 001:313 JLINK_WriteReg(R0, 0x0003C800)  returns 0x00 (0000ms, 0970ms total)
T1138 001:313 JLINK_WriteReg(R1, 0x00000400)  returns 0x00 (0000ms, 0970ms total)
T1138 001:313 JLINK_WriteReg(R2, 0x000000FF)  returns 0x00 (0000ms, 0970ms total)
T1138 001:313 JLINK_WriteReg(R3, 0x00000000)  returns 0x00 (0000ms, 0970ms total)
T1138 001:313 JLINK_WriteReg(R4, 0x00000000)  returns 0x00 (0000ms, 0970ms total)
T1138 001:313 JLINK_WriteReg(R5, 0x00000000)  returns 0x00 (0000ms, 0970ms total)
T1138 001:313 JLINK_WriteReg(R6, 0x00000000)  returns 0x00 (0000ms, 0970ms total)
T1138 001:313 JLINK_WriteReg(R7, 0x00000000)  returns 0x00 (0000ms, 0970ms total)
T1138 001:313 JLINK_WriteReg(R8, 0x00000000)  returns 0x00 (0000ms, 0970ms total)
T1138 001:313 JLINK_WriteReg(R9, 0x20000474)  returns 0x00 (0000ms, 0970ms total)
T1138 001:313 JLINK_WriteReg(R10, 0x00000000)  returns 0x00 (0000ms, 0970ms total)
T1138 001:313 JLINK_WriteReg(R11, 0x00000000)  returns 0x00 (0000ms, 0970ms total)
T1138 001:313 JLINK_WriteReg(R12, 0x00000000)  returns 0x00 (0000ms, 0970ms total)
T1138 001:313 JLINK_WriteReg(R13 (SP), 0x20004000)  returns 0x00 (0000ms, 0970ms total)
T1138 001:313 JLINK_WriteReg(R14, 0x20000001)  returns 0x00 (0000ms, 0970ms total)
T1138 001:313 JLINK_WriteReg(R15 (PC), 0x20000188)  returns 0x00 (0000ms, 0970ms total)
T1138 001:313 JLINK_WriteReg(XPSR, 0x01000000)  returns 0x00 (0000ms, 0970ms total)
T1138 001:313 JLINK_WriteReg(MSP, 0x20004000)  returns 0x00 (0000ms, 0970ms total)
T1138 001:313 JLINK_WriteReg(PSP, 0x20004000)  returns 0x00 (0000ms, 0970ms total)
T1138 001:313 JLINK_WriteReg(CFBP, 0x00000000)  returns 0x00 (0000ms, 0970ms total)
T1138 001:313 JLINK_SetBPEx(Addr = 0x20000000, Type = 0xFFFFFFF2)  returns 0x00000009 (0000ms, 0970ms total)
T1138 001:313 JLINK_Go() -- CPU_ReadMem(4 bytes @ 0xE0001000) (0005ms, 0975ms total)
T1138 001:318 JLINK_IsHalted() -- CPU_ReadMem(2 bytes @ 0x20000000)  returns TRUE (0009ms, 0984ms total)
T1138 001:327 JLINK_ReadReg(R15 (PC))  returns 0x20000000 (0000ms, 0975ms total)
T1138 001:327 JLINK_ClrBPEx(BPHandle = 0x00000009)  returns 0x00 (0000ms, 0975ms total)
T1138 001:327 JLINK_ReadReg(R0)  returns 0x00000000 (0000ms, 0975ms total)
T1138 001:328 JLINK_WriteReg(R0, 0x0003CC00)  returns 0x00 (0000ms, 0975ms total)
T1138 001:328 JLINK_WriteReg(R1, 0x00000400)  returns 0x00 (0000ms, 0975ms total)
T1138 001:328 JLINK_WriteReg(R2, 0x000000FF)  returns 0x00 (0000ms, 0975ms total)
T1138 001:328 JLINK_WriteReg(R3, 0x00000000)  returns 0x00 (0000ms, 0975ms total)
T1138 001:328 JLINK_WriteReg(R4, 0x00000000)  returns 0x00 (0001ms, 0976ms total)
T1138 001:329 JLINK_WriteReg(R5, 0x00000000)  returns 0x00 (0000ms, 0976ms total)
T1138 001:329 JLINK_WriteReg(R6, 0x00000000)  returns 0x00 (0000ms, 0976ms total)
T1138 001:329 JLINK_WriteReg(R7, 0x00000000)  returns 0x00 (0000ms, 0976ms total)
T1138 001:329 JLINK_WriteReg(R8, 0x00000000)  returns 0x00 (0000ms, 0976ms total)
T1138 001:329 JLINK_WriteReg(R9, 0x20000474)  returns 0x00 (0000ms, 0976ms total)
T1138 001:329 JLINK_WriteReg(R10, 0x00000000)  returns 0x00 (0000ms, 0976ms total)
T1138 001:329 JLINK_WriteReg(R11, 0x00000000)  returns 0x00 (0000ms, 0976ms total)
T1138 001:329 JLINK_WriteReg(R12, 0x00000000)  returns 0x00 (0000ms, 0976ms total)
T1138 001:329 JLINK_WriteReg(R13 (SP), 0x20004000)  returns 0x00 (0000ms, 0976ms total)
T1138 001:329 JLINK_WriteReg(R14, 0x20000001)  returns 0x00 (0000ms, 0976ms total)
T1138 001:329 JLINK_WriteReg(R15 (PC), 0x20000188)  returns 0x00 (0000ms, 0976ms total)
T1138 001:329 JLINK_WriteReg(XPSR, 0x01000000)  returns 0x00 (0000ms, 0976ms total)
T1138 001:329 JLINK_WriteReg(MSP, 0x20004000)  returns 0x00 (0000ms, 0976ms total)
T1138 001:329 JLINK_WriteReg(PSP, 0x20004000)  returns 0x00 (0000ms, 0976ms total)
T1138 001:329 JLINK_WriteReg(CFBP, 0x00000000)  returns 0x00 (0000ms, 0976ms total)
T1138 001:329 JLINK_SetBPEx(Addr = 0x20000000, Type = 0xFFFFFFF2)  returns 0x0000000A (0000ms, 0976ms total)
T1138 001:329 JLINK_Go() -- CPU_ReadMem(4 bytes @ 0xE0001000) (0005ms, 0981ms total)
T1138 001:334 JLINK_IsHalted() -- CPU_ReadMem(2 bytes @ 0x20000000)  returns TRUE (0009ms, 0990ms total)
T1138 001:343 JLINK_ReadReg(R15 (PC))  returns 0x20000000 (0000ms, 0981ms total)
T1138 001:343 JLINK_ClrBPEx(BPHandle = 0x0000000A)  returns 0x00 (0000ms, 0981ms total)
T1138 001:343 JLINK_ReadReg(R0)  returns 0x00000000 (0000ms, 0981ms total)
T1138 001:352 JLINK_WriteReg(R0, 0x00000001)  returns 0x00 (0000ms, 0981ms total)
T1138 001:352 JLINK_WriteReg(R1, 0x00000400)  returns 0x00 (0000ms, 0981ms total)
T1138 001:352 JLINK_WriteReg(R2, 0x000000FF)  returns 0x00 (0000ms, 0981ms total)
T1138 001:352 JLINK_WriteReg(R3, 0x00000000)  returns 0x00 (0000ms, 0981ms total)
T1138 001:352 JLINK_WriteReg(R4, 0x00000000)  returns 0x00 (0000ms, 0981ms total)
T1138 001:352 JLINK_WriteReg(R5, 0x00000000)  returns 0x00 (0000ms, 0981ms total)
T1138 001:352 JLINK_WriteReg(R6, 0x00000000)  returns 0x00 (0000ms, 0981ms total)
T1138 001:352 JLINK_WriteReg(R7, 0x00000000)  returns 0x00 (0000ms, 0981ms total)
T1138 001:352 JLINK_WriteReg(R8, 0x00000000)  returns 0x00 (0000ms, 0981ms total)
T1138 001:352 JLINK_WriteReg(R9, 0x20000474)  returns 0x00 (0000ms, 0981ms total)
T1138 001:352 JLINK_WriteReg(R10, 0x00000000)  returns 0x00 (0000ms, 0981ms total)
T1138 001:353 JLINK_WriteReg(R11, 0x00000000)  returns 0x00 (0000ms, 0982ms total)
T1138 001:353 JLINK_WriteReg(R12, 0x00000000)  returns 0x00 (0000ms, 0982ms total)
T1138 001:353 JLINK_WriteReg(R13 (SP), 0x20004000)  returns 0x00 (0000ms, 0982ms total)
T1138 001:353 JLINK_WriteReg(R14, 0x20000001)  returns 0x00 (0000ms, 0982ms total)
T1138 001:353 JLINK_WriteReg(R15 (PC), 0x20000058)  returns 0x00 (0000ms, 0982ms total)
T1138 001:353 JLINK_WriteReg(XPSR, 0x01000000)  returns 0x00 (0000ms, 0982ms total)
T1138 001:353 JLINK_WriteReg(MSP, 0x20004000)  returns 0x00 (0000ms, 0982ms total)
T1138 001:353 JLINK_WriteReg(PSP, 0x20004000)  returns 0x00 (0000ms, 0982ms total)
T1138 001:353 JLINK_WriteReg(CFBP, 0x00000000)  returns 0x00 (0000ms, 0982ms total)
T1138 001:353 JLINK_SetBPEx(Addr = 0x20000000, Type = 0xFFFFFFF2)  returns 0x0000000B (0000ms, 0982ms total)
T1138 001:353 JLINK_Go() -- CPU_ReadMem(4 bytes @ 0xE0001000) (0005ms, 0987ms total)
T1138 001:358 JLINK_IsHalted() -- CPU_ReadMem(2 bytes @ 0x20000000)  returns TRUE (0008ms, 0995ms total)
T1138 001:366 JLINK_ReadReg(R15 (PC))  returns 0x20000000 (0000ms, 0987ms total)
T1138 001:367 JLINK_ClrBPEx(BPHandle = 0x0000000B)  returns 0x00 (0000ms, 0988ms total)
T1138 001:367 JLINK_ReadReg(R0)  returns 0x00000000 (0000ms, 0988ms total)
T1138 001:435 JLINK_WriteMem(0x20000000, 0x0478 Bytes, ...) - Data: 00 BE 0A E0 0D 78 2D 06 68 40 08 24 40 00 00 D3 ... -- CPU_WriteMem(1144 bytes @ 0x20000000)  returns 0x478 (0017ms, 1005ms total)
T1138 001:452 JLINK_WriteReg(R0, 0x00000000)  returns 0x00 (0000ms, 1005ms total)
T1138 001:452 JLINK_WriteReg(R1, 0x00B71B00)  returns 0x00 (0000ms, 1005ms total)
T1138 001:452 JLINK_WriteReg(R2, 0x00000002)  returns 0x00 (0000ms, 1005ms total)
T1138 001:452 JLINK_WriteReg(R3, 0x00000000)  returns 0x00 (0000ms, 1005ms total)
T1138 001:452 JLINK_WriteReg(R4, 0x00000000)  returns 0x00 (0000ms, 1005ms total)
T1138 001:452 JLINK_WriteReg(R5, 0x00000000)  returns 0x00 (0000ms, 1005ms total)
T1138 001:452 JLINK_WriteReg(R6, 0x00000000)  returns 0x00 (0000ms, 1005ms total)
T1138 001:452 JLINK_WriteReg(R7, 0x00000000)  returns 0x00 (0000ms, 1005ms total)
T1138 001:452 JLINK_WriteReg(R8, 0x00000000)  returns 0x00 (0000ms, 1005ms total)
T1138 001:452 JLINK_WriteReg(R9, 0x20000474)  returns 0x00 (0000ms, 1005ms total)
T1138 001:452 JLINK_WriteReg(R10, 0x00000000)  returns 0x00 (0000ms, 1005ms total)
T1138 001:452 JLINK_WriteReg(R11, 0x00000000)  returns 0x00 (0000ms, 1005ms total)
T1138 001:452 JLINK_WriteReg(R12, 0x00000000)  returns 0x00 (0000ms, 1005ms total)
T1138 001:452 JLINK_WriteReg(R13 (SP), 0x20004000)  returns 0x00 (0000ms, 1005ms total)
T1138 001:452 JLINK_WriteReg(R14, 0x20000001)  returns 0x00 (0001ms, 1006ms total)
T1138 001:453 JLINK_WriteReg(R15 (PC), 0x20000028)  returns 0x00 (0000ms, 1006ms total)
T1138 001:453 JLINK_WriteReg(XPSR, 0x01000000)  returns 0x00 (0000ms, 1006ms total)
T1138 001:453 JLINK_WriteReg(MSP, 0x20004000)  returns 0x00 (0000ms, 1006ms total)
T1138 001:453 JLINK_WriteReg(PSP, 0x20004000)  returns 0x00 (0000ms, 1006ms total)
T1138 001:453 JLINK_WriteReg(CFBP, 0x00000000)  returns 0x00 (0000ms, 1006ms total)
T1138 001:453 JLINK_SetBPEx(Addr = 0x20000000, Type = 0xFFFFFFF2) -- CPU_ReadMem(2 bytes @ 0x20000000)  returns 0x0000000C (0001ms, 1007ms total)
T1138 001:454 JLINK_Go() -- CPU_WriteMem(2 bytes @ 0x20000000) -- CPU_ReadMem(4 bytes @ 0xE0001000) (0006ms, 1013ms total)
T1138 001:460 JLINK_IsHalted() -- CPU_ReadMem(2 bytes @ 0x20000000)  returns TRUE (0009ms, 1022ms total)
T1138 001:469 JLINK_ReadReg(R15 (PC))  returns 0x20000000 (0000ms, 1013ms total)
T1138 001:469 JLINK_ClrBPEx(BPHandle = 0x0000000C)  returns 0x00 (0000ms, 1013ms total)
T1138 001:469 JLINK_ReadReg(R0)  returns 0x00000000 (0000ms, 1013ms total)
T1138 001:470 JLINK_WriteMem(0x20000478, 0x0400 Bytes, ...) - Data: 80 21 00 20 09 AD 03 00 23 AD 03 00 25 AD 03 00 ... -- CPU_WriteMem(1024 bytes @ 0x20000478)  returns 0x400 (0015ms, 1028ms total)
T1138 001:485 JLINK_WriteReg(R0, 0x0003AC00)  returns 0x00 (0000ms, 1028ms total)
T1138 001:485 JLINK_WriteReg(R1, 0x00000400)  returns 0x00 (0000ms, 1028ms total)
T1138 001:485 JLINK_WriteReg(R2, 0x20000478)  returns 0x00 (0000ms, 1028ms total)
T1138 001:485 JLINK_WriteReg(R3, 0x00000000)  returns 0x00 (0000ms, 1028ms total)
T1138 001:485 JLINK_WriteReg(R4, 0x00000000)  returns 0x00 (0000ms, 1028ms total)
T1138 001:485 JLINK_WriteReg(R5, 0x00000000)  returns 0x00 (0000ms, 1028ms total)
T1138 001:485 JLINK_WriteReg(R6, 0x00000000)  returns 0x00 (0000ms, 1028ms total)
T1138 001:485 JLINK_WriteReg(R7, 0x00000000)  returns 0x00 (0000ms, 1028ms total)
T1138 001:485 JLINK_WriteReg(R8, 0x00000000)  returns 0x00 (0000ms, 1028ms total)
T1138 001:485 JLINK_WriteReg(R9, 0x20000474)  returns 0x00 (0000ms, 1028ms total)
T1138 001:485 JLINK_WriteReg(R10, 0x00000000)  returns 0x00 (0000ms, 1028ms total)
T1138 001:485 JLINK_WriteReg(R11, 0x00000000)  returns 0x00 (0000ms, 1028ms total)
T1138 001:485 JLINK_WriteReg(R12, 0x00000000)  returns 0x00 (0000ms, 1028ms total)
T1138 001:485 JLINK_WriteReg(R13 (SP), 0x20004000)  returns 0x00 (0000ms, 1028ms total)
T1138 001:485 JLINK_WriteReg(R14, 0x20000001)  returns 0x00 (0000ms, 1028ms total)
T1138 001:485 JLINK_WriteReg(R15 (PC), 0x200001C4)  returns 0x00 (0000ms, 1028ms total)
T1138 001:485 JLINK_WriteReg(XPSR, 0x01000000)  returns 0x00 (0000ms, 1028ms total)
T1138 001:485 JLINK_WriteReg(MSP, 0x20004000)  returns 0x00 (0000ms, 1028ms total)
T1138 001:485 JLINK_WriteReg(PSP, 0x20004000)  returns 0x00 (0000ms, 1028ms total)
T1138 001:485 JLINK_WriteReg(CFBP, 0x00000000)  returns 0x00 (0001ms, 1029ms total)
T1138 001:486 JLINK_SetBPEx(Addr = 0x20000000, Type = 0xFFFFFFF2)  returns 0x0000000D (0000ms, 1029ms total)
T1138 001:486 JLINK_Go() -- CPU_ReadMem(4 bytes @ 0xE0001000) (0005ms, 1034ms total)
T1138 001:491 JLINK_IsHalted()  returns FALSE (0001ms, 1035ms total)
T1138 001:653 JLINK_IsHalted() -- CPU_ReadMem(2 bytes @ 0x20000000)  returns TRUE (0008ms, 1042ms total)
T1138 001:661 JLINK_ReadReg(R15 (PC))  returns 0x20000000 (0000ms, 1034ms total)
T1138 001:661 JLINK_ClrBPEx(BPHandle = 0x0000000D)  returns 0x00 (0000ms, 1034ms total)
T1138 001:661 JLINK_ReadReg(R0)  returns 0x00000000 (0000ms, 1034ms total)
T1138 001:662 JLINK_WriteMem(0x20000478, 0x0400 Bytes, ...) - Data: 01 92 00 90 07 A9 06 4B 6A 46 06 98 00 F0 26 F8 ... -- CPU_WriteMem(1024 bytes @ 0x20000478)  returns 0x400 (0015ms, 1049ms total)
T1138 001:677 JLINK_WriteReg(R0, 0x0003B000)  returns 0x00 (0000ms, 1049ms total)
T1138 001:677 JLINK_WriteReg(R1, 0x00000400)  returns 0x00 (0000ms, 1049ms total)
T1138 001:677 JLINK_WriteReg(R2, 0x20000478)  returns 0x00 (0000ms, 1049ms total)
T1138 001:677 JLINK_WriteReg(R3, 0x00000000)  returns 0x00 (0000ms, 1049ms total)
T1138 001:677 JLINK_WriteReg(R4, 0x00000000)  returns 0x00 (0000ms, 1049ms total)
T1138 001:677 JLINK_WriteReg(R5, 0x00000000)  returns 0x00 (0000ms, 1049ms total)
T1138 001:677 JLINK_WriteReg(R6, 0x00000000)  returns 0x00 (0000ms, 1049ms total)
T1138 001:677 JLINK_WriteReg(R7, 0x00000000)  returns 0x00 (0000ms, 1049ms total)
T1138 001:677 JLINK_WriteReg(R8, 0x00000000)  returns 0x00 (0000ms, 1049ms total)
T1138 001:677 JLINK_WriteReg(R9, 0x20000474)  returns 0x00 (0000ms, 1049ms total)
T1138 001:677 JLINK_WriteReg(R10, 0x00000000)  returns 0x00 (0000ms, 1049ms total)
T1138 001:677 JLINK_WriteReg(R11, 0x00000000)  returns 0x00 (0000ms, 1049ms total)
T1138 001:677 JLINK_WriteReg(R12, 0x00000000)  returns 0x00 (0000ms, 1049ms total)
T1138 001:677 JLINK_WriteReg(R13 (SP), 0x20004000)  returns 0x00 (0000ms, 1049ms total)
T1138 001:677 JLINK_WriteReg(R14, 0x20000001)  returns 0x00 (0000ms, 1049ms total)
T1138 001:677 JLINK_WriteReg(R15 (PC), 0x200001C4)  returns 0x00 (0000ms, 1049ms total)
T1138 001:677 JLINK_WriteReg(XPSR, 0x01000000)  returns 0x00 (0000ms, 1049ms total)
T1138 001:677 JLINK_WriteReg(MSP, 0x20004000)  returns 0x00 (0000ms, 1049ms total)
T1138 001:677 JLINK_WriteReg(PSP, 0x20004000)  returns 0x00 (0000ms, 1049ms total)
T1138 001:677 JLINK_WriteReg(CFBP, 0x00000000)  returns 0x00 (0000ms, 1049ms total)
T1138 001:677 JLINK_SetBPEx(Addr = 0x20000000, Type = 0xFFFFFFF2)  returns 0x0000000E (0000ms, 1049ms total)
T1138 001:677 JLINK_Go() -- CPU_ReadMem(4 bytes @ 0xE0001000) (0005ms, 1054ms total)
T1138 001:682 JLINK_IsHalted()  returns FALSE (0001ms, 1055ms total)
T1138 001:784 JLINK_IsHalted() -- CPU_ReadMem(2 bytes @ 0x20000000)  returns TRUE (0008ms, 1062ms total)
T1138 001:792 JLINK_ReadReg(R15 (PC))  returns 0x20000000 (0000ms, 1054ms total)
T1138 001:792 JLINK_ClrBPEx(BPHandle = 0x0000000E)  returns 0x00 (0000ms, 1054ms total)
T1138 001:792 JLINK_ReadReg(R0)  returns 0x00000000 (0000ms, 1054ms total)
T1138 001:793 JLINK_WriteMem(0x20000478, 0x0400 Bytes, ...) - Data: 90 47 04 98 40 1C 76 1C 04 90 01 99 88 42 F3 DB ... -- CPU_WriteMem(1024 bytes @ 0x20000478)  returns 0x400 (0015ms, 1069ms total)
T1138 001:808 JLINK_WriteReg(R0, 0x0003B400)  returns 0x00 (0000ms, 1069ms total)
T1138 001:808 JLINK_WriteReg(R1, 0x00000400)  returns 0x00 (0000ms, 1069ms total)
T1138 001:808 JLINK_WriteReg(R2, 0x20000478)  returns 0x00 (0000ms, 1069ms total)
T1138 001:808 JLINK_WriteReg(R3, 0x00000000)  returns 0x00 (0000ms, 1069ms total)
T1138 001:808 JLINK_WriteReg(R4, 0x00000000)  returns 0x00 (0000ms, 1069ms total)
T1138 001:808 JLINK_WriteReg(R5, 0x00000000)  returns 0x00 (0000ms, 1069ms total)
T1138 001:808 JLINK_WriteReg(R6, 0x00000000)  returns 0x00 (0000ms, 1069ms total)
T1138 001:808 JLINK_WriteReg(R7, 0x00000000)  returns 0x00 (0000ms, 1069ms total)
T1138 001:808 JLINK_WriteReg(R8, 0x00000000)  returns 0x00 (0000ms, 1069ms total)
T1138 001:808 JLINK_WriteReg(R9, 0x20000474)  returns 0x00 (0000ms, 1069ms total)
T1138 001:808 JLINK_WriteReg(R10, 0x00000000)  returns 0x00 (0000ms, 1069ms total)
T1138 001:808 JLINK_WriteReg(R11, 0x00000000)  returns 0x00 (0000ms, 1069ms total)
T1138 001:808 JLINK_WriteReg(R12, 0x00000000)  returns 0x00 (0000ms, 1069ms total)
T1138 001:808 JLINK_WriteReg(R13 (SP), 0x20004000)  returns 0x00 (0000ms, 1069ms total)
T1138 001:808 JLINK_WriteReg(R14, 0x20000001)  returns 0x00 (0000ms, 1069ms total)
T1138 001:808 JLINK_WriteReg(R15 (PC), 0x200001C4)  returns 0x00 (0000ms, 1069ms total)
T1138 001:808 JLINK_WriteReg(XPSR, 0x01000000)  returns 0x00 (0000ms, 1069ms total)
T1138 001:808 JLINK_WriteReg(MSP, 0x20004000)  returns 0x00 (0000ms, 1069ms total)
T1138 001:808 JLINK_WriteReg(PSP, 0x20004000)  returns 0x00 (0000ms, 1069ms total)
T1138 001:808 JLINK_WriteReg(CFBP, 0x00000000)  returns 0x00 (0000ms, 1069ms total)
T1138 001:808 JLINK_SetBPEx(Addr = 0x20000000, Type = 0xFFFFFFF2)  returns 0x0000000F (0000ms, 1069ms total)
T1138 001:808 JLINK_Go() -- CPU_ReadMem(4 bytes @ 0xE0001000) (0005ms, 1074ms total)
T1138 001:813 JLINK_IsHalted()  returns FALSE (0002ms, 1076ms total)
T1138 001:919 JLINK_IsHalted() -- CPU_ReadMem(2 bytes @ 0x20000000)  returns TRUE (0009ms, 1083ms total)
T1138 001:928 JLINK_ReadReg(R15 (PC))  returns 0x20000000 (0000ms, 1074ms total)
T1138 001:928 JLINK_ClrBPEx(BPHandle = 0x0000000F)  returns 0x00 (0000ms, 1074ms total)
T1138 001:928 JLINK_ReadReg(R0)  returns 0x00000000 (0000ms, 1074ms total)
T1138 001:929 JLINK_WriteMem(0x20000478, 0x0400 Bytes, ...) - Data: 07 46 20 68 02 25 40 08 40 00 0E 46 20 60 00 29 ... -- CPU_WriteMem(1024 bytes @ 0x20000478)  returns 0x400 (0014ms, 1088ms total)
T1138 001:944 JLINK_WriteReg(R0, 0x0003B800)  returns 0x00 (0000ms, 1089ms total)
T1138 001:944 JLINK_WriteReg(R1, 0x00000400)  returns 0x00 (0000ms, 1089ms total)
T1138 001:944 JLINK_WriteReg(R2, 0x20000478)  returns 0x00 (0000ms, 1089ms total)
T1138 001:944 JLINK_WriteReg(R3, 0x00000000)  returns 0x00 (0000ms, 1089ms total)
T1138 001:944 JLINK_WriteReg(R4, 0x00000000)  returns 0x00 (0000ms, 1089ms total)
T1138 001:944 JLINK_WriteReg(R5, 0x00000000)  returns 0x00 (0000ms, 1089ms total)
T1138 001:944 JLINK_WriteReg(R6, 0x00000000)  returns 0x00 (0000ms, 1089ms total)
T1138 001:944 JLINK_WriteReg(R7, 0x00000000)  returns 0x00 (0000ms, 1089ms total)
T1138 001:944 JLINK_WriteReg(R8, 0x00000000)  returns 0x00 (0000ms, 1089ms total)
T1138 001:944 JLINK_WriteReg(R9, 0x20000474)  returns 0x00 (0000ms, 1089ms total)
T1138 001:944 JLINK_WriteReg(R10, 0x00000000)  returns 0x00 (0000ms, 1089ms total)
T1138 001:944 JLINK_WriteReg(R11, 0x00000000)  returns 0x00 (0000ms, 1089ms total)
T1138 001:944 JLINK_WriteReg(R12, 0x00000000)  returns 0x00 (0000ms, 1089ms total)
T1138 001:944 JLINK_WriteReg(R13 (SP), 0x20004000)  returns 0x00 (0000ms, 1089ms total)
T1138 001:944 JLINK_WriteReg(R14, 0x20000001)  returns 0x00 (0000ms, 1089ms total)
T1138 001:944 JLINK_WriteReg(R15 (PC), 0x200001C4)  returns 0x00 (0000ms, 1089ms total)
T1138 001:944 JLINK_WriteReg(XPSR, 0x01000000)  returns 0x00 (0000ms, 1089ms total)
T1138 001:944 JLINK_WriteReg(MSP, 0x20004000)  returns 0x00 (0000ms, 1089ms total)
T1138 001:944 JLINK_WriteReg(PSP, 0x20004000)  returns 0x00 (0000ms, 1089ms total)
T1138 001:944 JLINK_WriteReg(CFBP, 0x00000000)  returns 0x00 (0000ms, 1089ms total)
T1138 001:944 JLINK_SetBPEx(Addr = 0x20000000, Type = 0xFFFFFFF2)  returns 0x00000010 (0000ms, 1089ms total)
T1138 001:944 JLINK_Go() -- CPU_ReadMem(4 bytes @ 0xE0001000) (0005ms, 1094ms total)
T1138 001:949 JLINK_IsHalted()  returns FALSE (0002ms, 1096ms total)
T1138 002:058 JLINK_IsHalted() -- CPU_ReadMem(2 bytes @ 0x20000000)  returns TRUE (0009ms, 1103ms total)
T1138 002:067 JLINK_ReadReg(R15 (PC))  returns 0x20000000 (0000ms, 1094ms total)
T1138 002:067 JLINK_ClrBPEx(BPHandle = 0x00000010)  returns 0x00 (0001ms, 1095ms total)
T1138 002:068 JLINK_ReadReg(R0)  returns 0x00000000 (0000ms, 1095ms total)
T1138 002:069 JLINK_WriteMem(0x20000478, 0x0400 Bytes, ...) - Data: 5F 64 66 75 5F 6D 62 72 5F 69 6E 69 74 5F 73 64 ... -- CPU_WriteMem(1024 bytes @ 0x20000478)  returns 0x400 (0015ms, 1110ms total)
T1138 002:084 JLINK_WriteReg(R0, 0x0003BC00)  returns 0x00 (0000ms, 1110ms total)
T1138 002:084 JLINK_WriteReg(R1, 0x00000400)  returns 0x00 (0000ms, 1110ms total)
T1138 002:084 JLINK_WriteReg(R2, 0x20000478)  returns 0x00 (0000ms, 1110ms total)
T1138 002:084 JLINK_WriteReg(R3, 0x00000000)  returns 0x00 (0000ms, 1110ms total)
T1138 002:084 JLINK_WriteReg(R4, 0x00000000)  returns 0x00 (0000ms, 1110ms total)
T1138 002:084 JLINK_WriteReg(R5, 0x00000000)  returns 0x00 (0000ms, 1110ms total)
T1138 002:084 JLINK_WriteReg(R6, 0x00000000)  returns 0x00 (0000ms, 1110ms total)
T1138 002:084 JLINK_WriteReg(R7, 0x00000000)  returns 0x00 (0000ms, 1110ms total)
T1138 002:084 JLINK_WriteReg(R8, 0x00000000)  returns 0x00 (0000ms, 1110ms total)
T1138 002:084 JLINK_WriteReg(R9, 0x20000474)  returns 0x00 (0000ms, 1110ms total)
T1138 002:084 JLINK_WriteReg(R10, 0x00000000)  returns 0x00 (0000ms, 1110ms total)
T1138 002:084 JLINK_WriteReg(R11, 0x00000000)  returns 0x00 (0000ms, 1110ms total)
T1138 002:084 JLINK_WriteReg(R12, 0x00000000)  returns 0x00 (0000ms, 1110ms total)
T1138 002:084 JLINK_WriteReg(R13 (SP), 0x20004000)  returns 0x00 (0000ms, 1110ms total)
T1138 002:084 JLINK_WriteReg(R14, 0x20000001)  returns 0x00 (0000ms, 1110ms total)
T1138 002:084 JLINK_WriteReg(R15 (PC), 0x200001C4)  returns 0x00 (0000ms, 1110ms total)
T1138 002:084 JLINK_WriteReg(XPSR, 0x01000000)  returns 0x00 (0000ms, 1110ms total)
T1138 002:084 JLINK_WriteReg(MSP, 0x20004000)  returns 0x00 (0000ms, 1110ms total)
T1138 002:084 JLINK_WriteReg(PSP, 0x20004000)  returns 0x00 (0000ms, 1110ms total)
T1138 002:084 JLINK_WriteReg(CFBP, 0x00000000)  returns 0x00 (0000ms, 1110ms total)
T1138 002:084 JLINK_SetBPEx(Addr = 0x20000000, Type = 0xFFFFFFF2)  returns 0x00000011 (0000ms, 1110ms total)
T1138 002:084 JLINK_Go() -- CPU_ReadMem(4 bytes @ 0xE0001000) (0005ms, 1115ms total)
T1138 002:089 JLINK_IsHalted()  returns FALSE (0002ms, 1117ms total)
T1138 002:194 JLINK_IsHalted() -- CPU_ReadMem(2 bytes @ 0x20000000)  returns TRUE (0008ms, 1123ms total)
T1138 002:202 JLINK_ReadReg(R15 (PC))  returns 0x20000000 (0000ms, 1115ms total)
T1138 002:202 JLINK_ClrBPEx(BPHandle = 0x00000011)  returns 0x00 (0000ms, 1115ms total)
T1138 002:202 JLINK_ReadReg(R0)  returns 0x00000000 (0000ms, 1115ms total)
T1138 002:204 JLINK_WriteMem(0x20000478, 0x0400 Bytes, ...) - Data: 09 02 40 18 02 60 70 BD 1C B5 00 21 00 91 0B 46 ... -- CPU_WriteMem(1024 bytes @ 0x20000478)  returns 0x400 (0015ms, 1130ms total)
T1138 002:219 JLINK_WriteReg(R0, 0x0003C000)  returns 0x00 (0000ms, 1130ms total)
T1138 002:219 JLINK_WriteReg(R1, 0x00000400)  returns 0x00 (0000ms, 1130ms total)
T1138 002:219 JLINK_WriteReg(R2, 0x20000478)  returns 0x00 (0000ms, 1130ms total)
T1138 002:219 JLINK_WriteReg(R3, 0x00000000)  returns 0x00 (0000ms, 1130ms total)
T1138 002:219 JLINK_WriteReg(R4, 0x00000000)  returns 0x00 (0000ms, 1130ms total)
T1138 002:220 JLINK_WriteReg(R5, 0x00000000)  returns 0x00 (0000ms, 1131ms total)
T1138 002:220 JLINK_WriteReg(R6, 0x00000000)  returns 0x00 (0000ms, 1131ms total)
T1138 002:220 JLINK_WriteReg(R7, 0x00000000)  returns 0x00 (0000ms, 1131ms total)
T1138 002:220 JLINK_WriteReg(R8, 0x00000000)  returns 0x00 (0000ms, 1131ms total)
T1138 002:220 JLINK_WriteReg(R9, 0x20000474)  returns 0x00 (0000ms, 1131ms total)
T1138 002:220 JLINK_WriteReg(R10, 0x00000000)  returns 0x00 (0000ms, 1131ms total)
T1138 002:220 JLINK_WriteReg(R11, 0x00000000)  returns 0x00 (0000ms, 1131ms total)
T1138 002:220 JLINK_WriteReg(R12, 0x00000000)  returns 0x00 (0000ms, 1131ms total)
T1138 002:220 JLINK_WriteReg(R13 (SP), 0x20004000)  returns 0x00 (0000ms, 1131ms total)
T1138 002:220 JLINK_WriteReg(R14, 0x20000001)  returns 0x00 (0000ms, 1131ms total)
T1138 002:220 JLINK_WriteReg(R15 (PC), 0x200001C4)  returns 0x00 (0000ms, 1131ms total)
T1138 002:220 JLINK_WriteReg(XPSR, 0x01000000)  returns 0x00 (0000ms, 1131ms total)
T1138 002:220 JLINK_WriteReg(MSP, 0x20004000)  returns 0x00 (0000ms, 1131ms total)
T1138 002:220 JLINK_WriteReg(PSP, 0x20004000)  returns 0x00 (0000ms, 1131ms total)
T1138 002:220 JLINK_WriteReg(CFBP, 0x00000000)  returns 0x00 (0000ms, 1131ms total)
T1138 002:220 JLINK_SetBPEx(Addr = 0x20000000, Type = 0xFFFFFFF2)  returns 0x00000012 (0000ms, 1131ms total)
T1138 002:220 JLINK_Go() -- CPU_ReadMem(4 bytes @ 0xE0001000) (0005ms, 1136ms total)
T1138 002:225 JLINK_IsHalted()  returns FALSE (0001ms, 1137ms total)
T1138 002:325 JLINK_IsHalted() -- CPU_ReadMem(2 bytes @ 0x20000000)  returns TRUE (0008ms, 1144ms total)
T1138 002:333 JLINK_ReadReg(R15 (PC))  returns 0x20000000 (0000ms, 1136ms total)
T1138 002:333 JLINK_ClrBPEx(BPHandle = 0x00000012)  returns 0x00 (0000ms, 1136ms total)
T1138 002:333 JLINK_ReadReg(R0)  returns 0x00000000 (0000ms, 1136ms total)
